
T1348 000:398 SEGGER J-Link V4.91b (beta) Log File (0001ms, 0343ms total)
T1348 000:398 DLL Compiled: Sep 15 2014 09:17:56 (0001ms, 0343ms total)
T1348 000:398 Logging started @ 2017-06-06 15:11 (0001ms, 0343ms total)
T1348 000:399 JLINK_SetWarnOutHandler(...) (0000ms, 0343ms total)
T1348 000:399 JLINK_OpenEx(...)
Firmware: J-Link ARM V8 compiled Jul 17 2014 12:31:18
Hardware: V8.00
S/N: 20121126
Feature(s): RDI,FlashDL,FlashBP,JFlash  returns O.K. (0270ms, 0613ms total)
T1348 000:669 JLINK_SetErrorOutHandler(...) (0000ms, 0613ms total)
T1348 000:669 JLINK_ExecCommand("ProjectFile = "E:\黄鸯鸯\毕业设计\数据采集系统\程序\下位机\程序编写\测试\定时更新\USER\JLinkSettings.ini"", ...)  returns 0x00 (0054ms, 0667ms total)
T1348 000:726 JLINK_ExecCommand("Device = STM32F103RB", ...)Device "STM32F103RB" selected (128 KB flash, 20 KB RAM).  returns 0x00 (0004ms, 0671ms total)
T1348 000:730 JLINK_ExecCommand("DisableConnectionTimeout", ...)  returns 0x01 (0000ms, 0671ms total)
T1348 000:730 JLINK_GetHardwareVersion()  returns 0x13880 (0000ms, 0671ms total)
T1348 000:730 JLINK_GetDLLVersion()  returns 49102 (0000ms, 0671ms total)
T1348 000:730 JLINK_GetFirmwareString(...) (0000ms, 0671ms total)
T1348 000:739 JLINK_GetDLLVersion()  returns 49102 (0000ms, 0671ms total)
T1348 000:739 JLINK_GetCompileDateTime() (0000ms, 0671ms total)
T1348 000:741 JLINK_GetFirmwareString(...) (0000ms, 0671ms total)
T1348 000:744 JLINK_GetHardwareVersion()  returns 0x13880 (0000ms, 0671ms total)
T1348 000:757 JLINK_TIF_Select(JLINKARM_TIF_SWD)  returns 0x00 (0005ms, 0676ms total)
T1348 000:762 JLINK_SetSpeed(5000) (0002ms, 0678ms total)
T1348 000:764 JLINK_GetId() >0x108 TIF>Found SWD-DP with ID 0x1BA01477 >0x0D TIF> >0x28 TIF> >0x0D TIF> >0x28 TIF> >0x0D TIF> >0x21 TIF> >0x0D TIF> >0x28 TIF> >0x0D TIF> >0x28 TIF> >0x0D TIF> >0x28 TIF> >0x0D TIF> >0x21 TIF> >0x0D TIF> >0x21 TIF> >0x0D TIF> >0x28 TIF> >0x0D TIF> >0x21 TIF> >0x0D TIF> >0x21 TIF> >0x0D TIF> >0x28 TIF> >0x0D TIF> >0x28 TIF> >0x108 TIF>Found SWD-DP with ID 0x1BA01477 >0x0D TIF> >0x21 TIF> >0x0D TIF> >0x28 TIF> >0x0D TIF> >0x28 TIF> >0x0D TIF> >0x21 TIF> >0x0D TIF> >0x28 TIF>
 >0x0D TIF> >0x21 TIF> >0x0D TIF> >0x21 TIF> >0x0D TIF> >0x21 TIF> >0x0D TIF> >0x21 TIF> >0x0D TIF> >0x28 TIF> >0x0D TIF> >0x28 TIF> >0x0D TIF> >0x21 TIF> >0x0D TIF> >0x28 TIF> >0x0D TIF> >0x28 TIF> >0x0D TIF> >0x28 TIF> >0x0D TIF> >0x21 TIF> >0x0D TIF> >0x21 TIF> >0x0D TIF> >0x28 TIF> >0x0D TIF> >0x21 TIF> >0x0D TIF> >0x21 TIF>Found Cortex-M3 r1p1, Little endian. -- CPU_WriteMem(4 bytes @ 0xE0002000) -- CPU_ReadMem(4 bytes @ 0xE000EDF0) -- CPU_WriteMem(4 bytes @ 0xE000EDF0)
 -- CPU_ReadMem(4 bytes @ 0xE0002000)FPUnit: 6 code (BP) slots and 2 literal slots -- CPU_ReadMem(4 bytes @ 0xE000EDFC) -- CPU_WriteMem(4 bytes @ 0xE000EDFC) -- CPU_ReadMem(4 bytes @ 0xE0001000) -- CPU_WriteMem(4 bytes @ 0xE0001000) -- CPU_ReadMem(4 bytes @ 0xE000ED88) -- CPU_WriteMem(4 bytes @ 0xE000ED88) -- CPU_ReadMem(4 bytes @ 0xE000ED88) -- CPU_WriteMem(4 bytes @ 0xE000ED88) -- CPU_ReadMem(4 bytes @ 0xE00FF010)TPIU fitted. -- CPU_ReadMem(4 bytes @ 0xE00FF014) -- CPU_ReadMem(4 bytes @ 0xE00FF018)
 >0x0D TIF> >0x21 TIF>  returns 0x1BA01477 (0105ms, 0783ms total)
T1348 000:869 JLINK_GetDeviceFamily()  returns 3 (0000ms, 0783ms total)
T1348 000:871 JLINK_ReadMem (0xE00FFFF0, 0x0010 Bytes, ...) -- CPU is running -- CPU_ReadMem(16 bytes @ 0xE00FFFF0) - Data: 0D 00 00 00 10 00 00 00 05 00 00 00 B1 00 00 00  returns 0x00 (0001ms, 0784ms total)
T1348 000:872 JLINK_ReadMem (0xE00FFFD0, 0x0020 Bytes, ...) -- CPU is running -- CPU_ReadMem(32 bytes @ 0xE00FFFD0) - Data: 00 00 00 00 00 00 00 00 00 00 00 00 00 00 00 00 ...  returns 0x00 (0001ms, 0785ms total)
T1348 000:873 JLINK_ReadMem (0xE00FF000, 0x0018 Bytes, ...) -- CPU is running -- CPU_ReadMem(24 bytes @ 0xE00FF000) - Data: 03 F0 F0 FF 03 20 F0 FF 03 30 F0 FF 03 10 F0 FF ...  returns 0x00 (0001ms, 0786ms total)
T1348 000:874 JLINK_ReadMemU32(0xE000ED00, 0x0001 Items, ...) -- CPU is running -- CPU_ReadMem(4 bytes @ 0xE000ED00) - Data: 31 C2 1F 41  returns 0x01 (0001ms, 0787ms total)
T1348 000:875 JLINK_SetResetType(JLINKARM_RESET_TYPE_NORMAL)  returns JLINKARM_RESET_TYPE_NORMAL (0000ms, 0787ms total)
T1348 000:875 JLINK_Reset() -- CPU is running -- CPU_WriteMem(4 bytes @ 0xE000EDF0) -- CPU is running -- CPU_WriteMem(4 bytes @ 0xE000EDFC) >0x35 TIF> -- CPU is running -- CPU_WriteMem(4 bytes @ 0xE000ED0C) -- CPU is running -- CPU_ReadMem(4 bytes @ 0xE000EDF0) -- CPU is running -- CPU_ReadMem(4 bytes @ 0xE000EDF0) -- CPU is running -- CPU_WriteMem(4 bytes @ 0xE000EDF0) -- CPU is running -- CPU_WriteMem(4 bytes @ 0xE000EDFC) -- CPU is running -- CPU_ReadMem(4 bytes @ 0xE000EDF0)
 -- CPU_WriteMem(4 bytes @ 0xE0002000) -- CPU_ReadMem(4 bytes @ 0xE000EDFC) -- CPU_ReadMem(4 bytes @ 0xE0001000) (0024ms, 0811ms total)
T1348 000:899 JLINK_Halt()  returns 0x00 (0000ms, 0811ms total)
T1348 000:899 JLINK_IsHalted()  returns TRUE (0000ms, 0811ms total)
T1348 000:899 JLINK_ReadMemU32(0xE000EDF0, 0x0001 Items, ...) -- CPU_ReadMem(4 bytes @ 0xE000EDF0) - Data: 03 00 03 00  returns 0x01 (0001ms, 0812ms total)
T1348 000:900 JLINK_WriteU32(0xE000EDF0, 0xA05F0003) -- CPU_WriteMem(4 bytes @ 0xE000EDF0)  returns 0x00 (0001ms, 0813ms total)
T1348 000:901 JLINK_WriteU32(0xE000EDFC, 0x01000000) -- CPU_WriteMem(4 bytes @ 0xE000EDFC)  returns 0x00 (0002ms, 0815ms total)
T1348 000:911 JLINK_GetHWStatus(...)  returns 0x00 (0001ms, 0816ms total)
T1348 000:918 JLINK_GetNumBPUnits(Type = 0xFFFFFF00)  returns 0x06 (0000ms, 0816ms total)
T1348 000:918 JLINK_GetNumBPUnits(Type = 0xF0)  returns 0x2000 (0000ms, 0816ms total)
T1348 000:918 JLINK_GetNumWPUnits()  returns 0x04 (0000ms, 0816ms total)
T1348 000:924 JLINK_GetSpeed()  returns 0xFA0 (0000ms, 0816ms total)
T1348 000:928 JLINK_ReadMemU32(0xE000E004, 0x0001 Items, ...) -- CPU_ReadMem(4 bytes @ 0xE000E004) - Data: 01 00 00 00  returns 0x01 (0001ms, 0817ms total)
T1348 000:929 JLINK_ReadMemU32(0xE000E004, 0x0001 Items, ...) -- CPU_ReadMem(4 bytes @ 0xE000E004) - Data: 01 00 00 00  returns 0x01 (0001ms, 0818ms total)
T1348 000:930 JLINK_WriteMem(0xE0001000, 0x001C Bytes, ...) - Data: 01 00 00 00 00 00 00 00 00 00 00 00 00 00 00 00 ... -- CPU_WriteMem(28 bytes @ 0xE0001000)  returns 0x1C (0001ms, 0819ms total)
T1348 000:931 JLINK_ReadMem (0xE0001000, 0x001C Bytes, ...) -- CPU_ReadMem(28 bytes @ 0xE0001000) - Data: 01 00 00 40 00 00 00 00 00 00 00 00 00 00 00 00 ...  returns 0x00 (0001ms, 0820ms total)
T1348 000:932 JLINK_Halt()  returns 0x00 (0000ms, 0820ms total)
T1348 000:932 JLINK_IsHalted()  returns TRUE (0000ms, 0820ms total)
T1348 000:966 JLINK_WriteMem(0x20000000, 0x0164 Bytes, ...) - Data: 00 BE 0A E0 0D 78 2D 06 68 40 08 24 40 00 00 D3 ... -- CPU_WriteMem(356 bytes @ 0x20000000)  returns 0x164 (0004ms, 0824ms total)
T1348 000:970 JLINK_WriteReg(R0, 0x08000000)  returns 0x00 (0000ms, 0824ms total)
T1348 000:970 JLINK_WriteReg(R1, 0x00B71B00)  returns 0x00 (0000ms, 0824ms total)
T1348 000:970 JLINK_WriteReg(R2, 0x00000001)  returns 0x00 (0000ms, 0824ms total)
T1348 000:970 JLINK_WriteReg(R3, 0x00000000)  returns 0x00 (0000ms, 0824ms total)
T1348 000:970 JLINK_WriteReg(R4, 0x00000000)  returns 0x00 (0000ms, 0824ms total)
T1348 000:970 JLINK_WriteReg(R5, 0x00000000)  returns 0x00 (0000ms, 0824ms total)
T1348 000:970 JLINK_WriteReg(R6, 0x00000000)  returns 0x00 (0000ms, 0824ms total)
T1348 000:970 JLINK_WriteReg(R7, 0x00000000)  returns 0x00 (0000ms, 0824ms total)
T1348 000:970 JLINK_WriteReg(R8, 0x00000000)  returns 0x00 (0000ms, 0824ms total)
T1348 000:970 JLINK_WriteReg(R9, 0x20000160)  returns 0x00 (0000ms, 0824ms total)
T1348 000:970 JLINK_WriteReg(R10, 0x00000000)  returns 0x00 (0000ms, 0824ms total)
T1348 000:970 JLINK_WriteReg(R11, 0x00000000)  returns 0x00 (0000ms, 0824ms total)
T1348 000:970 JLINK_WriteReg(R12, 0x00000000)  returns 0x00 (0000ms, 0824ms total)
T1348 000:970 JLINK_WriteReg(R13 (SP), 0x20000800)  returns 0x00 (0000ms, 0824ms total)
T1348 000:970 JLINK_WriteReg(R14, 0x20000001)  returns 0x00 (0000ms, 0824ms total)
T1348 000:970 JLINK_WriteReg(R15 (PC), 0x20000038)  returns 0x00 (0000ms, 0824ms total)
T1348 000:970 JLINK_WriteReg(XPSR, 0x01000000)  returns 0x00 (0000ms, 0824ms total)
T1348 000:970 JLINK_WriteReg(MSP, 0x20000800)  returns 0x00 (0000ms, 0824ms total)
T1348 000:970 JLINK_WriteReg(PSP, 0x20000800)  returns 0x00 (0000ms, 0824ms total)
T1348 000:970 JLINK_WriteReg(CFBP, 0x00000000)  returns 0x00 (0000ms, 0824ms total)
T1348 000:970 JLINK_SetBPEx(Addr = 0x20000000, Type = 0xFFFFFFF2) -- CPU_ReadMem(2 bytes @ 0x20000000)  returns 0x00000001 (0001ms, 0825ms total)
T1348 000:971 JLINK_Go() -- CPU_WriteMem(2 bytes @ 0x20000000) -- CPU_WriteMem(4 bytes @ 0xE0002008) -- CPU_WriteMem(4 bytes @ 0xE000200C) -- CPU_WriteMem(4 bytes @ 0xE0002010) -- CPU_WriteMem(4 bytes @ 0xE0002014) -- CPU_WriteMem(4 bytes @ 0xE0002018) -- CPU_WriteMem(4 bytes @ 0xE000201C) -- CPU_WriteMem(4 bytes @ 0xE0001004) (0014ms, 0839ms total)
T1348 000:985 JLINK_IsHalted() -- CPU_ReadMem(2 bytes @ 0x20000000)  returns TRUE (0004ms, 0843ms total)
T1348 000:989 JLINK_ReadReg(R15 (PC))  returns 0x20000000 (0000ms, 0839ms total)
T1348 000:989 JLINK_ClrBPEx(BPHandle = 0x00000001)  returns 0x00 (0000ms, 0839ms total)
T1348 000:989 JLINK_ReadReg(R0)  returns 0x00000000 (0000ms, 0839ms total)
T1348 000:989 JLINK_WriteReg(R0, 0x08000000)  returns 0x00 (0000ms, 0839ms total)
T1348 000:989 JLINK_WriteReg(R1, 0x00B71B00)  returns 0x00 (0000ms, 0839ms total)
T1348 000:989 JLINK_WriteReg(R2, 0x00000001)  returns 0x00 (0000ms, 0839ms total)
T1348 000:989 JLINK_WriteReg(R3, 0x00000000)  returns 0x00 (0000ms, 0839ms total)
T1348 000:989 JLINK_WriteReg(R4, 0x00000000)  returns 0x00 (0000ms, 0839ms total)
T1348 000:989 JLINK_WriteReg(R5, 0x00000000)  returns 0x00 (0000ms, 0839ms total)
T1348 000:989 JLINK_WriteReg(R6, 0x00000000)  returns 0x00 (0000ms, 0839ms total)
T1348 000:989 JLINK_WriteReg(R7, 0x00000000)  returns 0x00 (0000ms, 0839ms total)
T1348 000:989 JLINK_WriteReg(R8, 0x00000000)  returns 0x00 (0001ms, 0840ms total)
T1348 000:990 JLINK_WriteReg(R9, 0x20000160)  returns 0x00 (0000ms, 0840ms total)
T1348 000:990 JLINK_WriteReg(R10, 0x00000000)  returns 0x00 (0000ms, 0840ms total)
T1348 000:990 JLINK_WriteReg(R11, 0x00000000)  returns 0x00 (0000ms, 0840ms total)
T1348 000:990 JLINK_WriteReg(R12, 0x00000000)  returns 0x00 (0000ms, 0840ms total)
T1348 000:990 JLINK_WriteReg(R13 (SP), 0x20000800)  returns 0x00 (0000ms, 0840ms total)
T1348 000:990 JLINK_WriteReg(R14, 0x20000001)  returns 0x00 (0000ms, 0840ms total)
T1348 000:990 JLINK_WriteReg(R15 (PC), 0x2000007C)  returns 0x00 (0000ms, 0840ms total)
T1348 000:990 JLINK_WriteReg(XPSR, 0x01000000)  returns 0x00 (0000ms, 0840ms total)
T1348 000:990 JLINK_WriteReg(MSP, 0x20000800)  returns 0x00 (0000ms, 0840ms total)
T1348 000:990 JLINK_WriteReg(PSP, 0x20000800)  returns 0x00 (0000ms, 0840ms total)
T1348 000:990 JLINK_WriteReg(CFBP, 0x00000000)  returns 0x00 (0000ms, 0840ms total)
T1348 000:990 JLINK_SetBPEx(Addr = 0x20000000, Type = 0xFFFFFFF2)  returns 0x00000002 (0000ms, 0840ms total)
T1348 000:990 JLINK_Go() (0002ms, 0842ms total)
T1348 000:992 JLINK_IsHalted()  returns FALSE (0001ms, 0843ms total)
T1348 001:033 JLINK_IsHalted() -- CPU_ReadMem(2 bytes @ 0x20000000)  returns TRUE (0005ms, 0847ms total)
T1348 001:038 JLINK_ReadReg(R15 (PC))  returns 0x20000000 (0000ms, 0842ms total)
T1348 001:038 JLINK_ClrBPEx(BPHandle = 0x00000002)  returns 0x00 (0000ms, 0842ms total)
T1348 001:038 JLINK_ReadReg(R0)  returns 0x00000000 (0000ms, 0842ms total)
T1348 001:088 JLINK_WriteReg(R0, 0x00000001)  returns 0x00 (0000ms, 0842ms total)
T1348 001:088 JLINK_WriteReg(R1, 0x00B71B00)  returns 0x00 (0000ms, 0842ms total)
T1348 001:088 JLINK_WriteReg(R2, 0x00000001)  returns 0x00 (0000ms, 0842ms total)
T1348 001:088 JLINK_WriteReg(R3, 0x00000000)  returns 0x00 (0000ms, 0842ms total)
T1348 001:088 JLINK_WriteReg(R4, 0x00000000)  returns 0x00 (0000ms, 0842ms total)
T1348 001:089 JLINK_WriteReg(R5, 0x00000000)  returns 0x00 (0000ms, 0843ms total)
T1348 001:089 JLINK_WriteReg(R6, 0x00000000)  returns 0x00 (0000ms, 0843ms total)
T1348 001:089 JLINK_WriteReg(R7, 0x00000000)  returns 0x00 (0000ms, 0843ms total)
T1348 001:089 JLINK_WriteReg(R8, 0x00000000)  returns 0x00 (0000ms, 0843ms total)
T1348 001:089 JLINK_WriteReg(R9, 0x20000160)  returns 0x00 (0000ms, 0843ms total)
T1348 001:089 JLINK_WriteReg(R10, 0x00000000)  returns 0x00 (0000ms, 0843ms total)
T1348 001:089 JLINK_WriteReg(R11, 0x00000000)  returns 0x00 (0000ms, 0843ms total)
T1348 001:089 JLINK_WriteReg(R12, 0x00000000)  returns 0x00 (0000ms, 0843ms total)
T1348 001:089 JLINK_WriteReg(R13 (SP), 0x20000800)  returns 0x00 (0000ms, 0843ms total)
T1348 001:089 JLINK_WriteReg(R14, 0x20000001)  returns 0x00 (0000ms, 0843ms total)
T1348 001:089 JLINK_WriteReg(R15 (PC), 0x2000006A)  returns 0x00 (0000ms, 0843ms total)
T1348 001:089 JLINK_WriteReg(XPSR, 0x01000000)  returns 0x00 (0000ms, 0843ms total)
T1348 001:089 JLINK_WriteReg(MSP, 0x20000800)  returns 0x00 (0000ms, 0843ms total)
T1348 001:089 JLINK_WriteReg(PSP, 0x20000800)  returns 0x00 (0000ms, 0843ms total)
T1348 001:089 JLINK_WriteReg(CFBP, 0x00000000)  returns 0x00 (0000ms, 0843ms total)
T1348 001:089 JLINK_SetBPEx(Addr = 0x20000000, Type = 0xFFFFFFF2)  returns 0x00000003 (0000ms, 0843ms total)
T1348 001:089 JLINK_Go() (0002ms, 0845ms total)
T1348 001:091 JLINK_IsHalted() -- CPU_ReadMem(2 bytes @ 0x20000000)  returns TRUE (0004ms, 0849ms total)
T1348 001:095 JLINK_ReadReg(R15 (PC))  returns 0x20000000 (0000ms, 0845ms total)
T1348 001:095 JLINK_ClrBPEx(BPHandle = 0x00000003)  returns 0x00 (0000ms, 0845ms total)
T1348 001:095 JLINK_ReadReg(R0)  returns 0x00000000 (0000ms, 0845ms total)
T1348 001:100 JLINK_WriteMem(0x20000000, 0x0164 Bytes, ...) - Data: 00 BE 0A E0 0D 78 2D 06 68 40 08 24 40 00 00 D3 ... -- CPU_WriteMem(356 bytes @ 0x20000000)  returns 0x164 (0004ms, 0849ms total)
T1348 001:104 JLINK_WriteReg(R0, 0x08000000)  returns 0x00 (0000ms, 0849ms total)
T1348 001:104 JLINK_WriteReg(R1, 0x00B71B00)  returns 0x00 (0000ms, 0849ms total)
T1348 001:104 JLINK_WriteReg(R2, 0x00000002)  returns 0x00 (0000ms, 0849ms total)
T1348 001:104 JLINK_WriteReg(R3, 0x00000000)  returns 0x00 (0000ms, 0849ms total)
T1348 001:104 JLINK_WriteReg(R4, 0x00000000)  returns 0x00 (0000ms, 0849ms total)
T1348 001:104 JLINK_WriteReg(R5, 0x00000000)  returns 0x00 (0000ms, 0849ms total)
T1348 001:104 JLINK_WriteReg(R6, 0x00000000)  returns 0x00 (0000ms, 0849ms total)
T1348 001:104 JLINK_WriteReg(R7, 0x00000000)  returns 0x00 (0000ms, 0849ms total)
T1348 001:104 JLINK_WriteReg(R8, 0x00000000)  returns 0x00 (0000ms, 0849ms total)
T1348 001:104 JLINK_WriteReg(R9, 0x20000160)  returns 0x00 (0000ms, 0849ms total)
T1348 001:104 JLINK_WriteReg(R10, 0x00000000)  returns 0x00 (0000ms, 0849ms total)
T1348 001:104 JLINK_WriteReg(R11, 0x00000000)  returns 0x00 (0000ms, 0849ms total)
T1348 001:104 JLINK_WriteReg(R12, 0x00000000)  returns 0x00 (0000ms, 0849ms total)
T1348 001:104 JLINK_WriteReg(R13 (SP), 0x20000800)  returns 0x00 (0000ms, 0849ms total)
T1348 001:104 JLINK_WriteReg(R14, 0x20000001)  returns 0x00 (0000ms, 0849ms total)
T1348 001:104 JLINK_WriteReg(R15 (PC), 0x20000038)  returns 0x00 (0000ms, 0849ms total)
T1348 001:104 JLINK_WriteReg(XPSR, 0x01000000)  returns 0x00 (0000ms, 0849ms total)
T1348 001:104 JLINK_WriteReg(MSP, 0x20000800)  returns 0x00 (0000ms, 0849ms total)
T1348 001:104 JLINK_WriteReg(PSP, 0x20000800)  returns 0x00 (0000ms, 0849ms total)
T1348 001:104 JLINK_WriteReg(CFBP, 0x00000000)  returns 0x00 (0000ms, 0849ms total)
T1348 001:104 JLINK_SetBPEx(Addr = 0x20000000, Type = 0xFFFFFFF2) -- CPU_ReadMem(2 bytes @ 0x20000000)  returns 0x00000004 (0001ms, 0850ms total)
T1348 001:105 JLINK_Go() -- CPU_WriteMem(2 bytes @ 0x20000000) (0003ms, 0853ms total)
T1348 001:108 JLINK_IsHalted() -- CPU_ReadMem(2 bytes @ 0x20000000)  returns TRUE (0004ms, 0857ms total)
T1348 001:112 JLINK_ReadReg(R15 (PC))  returns 0x20000000 (0000ms, 0853ms total)
T1348 001:112 JLINK_ClrBPEx(BPHandle = 0x00000004)  returns 0x00 (0000ms, 0853ms total)
T1348 001:112 JLINK_ReadReg(R0)  returns 0x00000000 (0000ms, 0853ms total)
T1348 001:112 JLINK_WriteMem(0x20000164, 0x0400 Bytes, ...) - Data: 50 43 00 20 61 04 00 08 E1 01 00 08 E3 01 00 08 ... -- CPU_WriteMem(1024 bytes @ 0x20000164)  returns 0x400 (0008ms, 0861ms total)
T1348 001:120 JLINK_WriteReg(R0, 0x08000000)  returns 0x00 (0000ms, 0861ms total)
T1348 001:120 JLINK_WriteReg(R1, 0x00000400)  returns 0x00 (0000ms, 0861ms total)
T1348 001:120 JLINK_WriteReg(R2, 0x20000164)  returns 0x00 (0000ms, 0861ms total)
T1348 001:120 JLINK_WriteReg(R3, 0x00000000)  returns 0x00 (0000ms, 0861ms total)
T1348 001:120 JLINK_WriteReg(R4, 0x00000000)  returns 0x00 (0000ms, 0861ms total)
T1348 001:120 JLINK_WriteReg(R5, 0x00000000)  returns 0x00 (0000ms, 0861ms total)
T1348 001:120 JLINK_WriteReg(R6, 0x00000000)  returns 0x00 (0000ms, 0861ms total)
T1348 001:120 JLINK_WriteReg(R7, 0x00000000)  returns 0x00 (0000ms, 0861ms total)
T1348 001:120 JLINK_WriteReg(R8, 0x00000000)  returns 0x00 (0000ms, 0861ms total)
T1348 001:120 JLINK_WriteReg(R9, 0x20000160)  returns 0x00 (0000ms, 0861ms total)
T1348 001:120 JLINK_WriteReg(R10, 0x00000000)  returns 0x00 (0000ms, 0861ms total)
T1348 001:120 JLINK_WriteReg(R11, 0x00000000)  returns 0x00 (0000ms, 0861ms total)
T1348 001:120 JLINK_WriteReg(R12, 0x00000000)  returns 0x00 (0000ms, 0861ms total)
T1348 001:120 JLINK_WriteReg(R13 (SP), 0x20000800)  returns 0x00 (0000ms, 0861ms total)
T1348 001:120 JLINK_WriteReg(R14, 0x20000001)  returns 0x00 (0000ms, 0861ms total)
T1348 001:120 JLINK_WriteReg(R15 (PC), 0x200000F4)  returns 0x00 (0000ms, 0861ms total)
T1348 001:120 JLINK_WriteReg(XPSR, 0x01000000)  returns 0x00 (0000ms, 0861ms total)
T1348 001:120 JLINK_WriteReg(MSP, 0x20000800)  returns 0x00 (0000ms, 0861ms total)
T1348 001:120 JLINK_WriteReg(PSP, 0x20000800)  returns 0x00 (0000ms, 0861ms total)
T1348 001:120 JLINK_WriteReg(CFBP, 0x00000000)  returns 0x00 (0000ms, 0861ms total)
T1348 001:120 JLINK_SetBPEx(Addr = 0x20000000, Type = 0xFFFFFFF2)  returns 0x00000005 (0000ms, 0861ms total)
T1348 001:120 JLINK_Go() (0003ms, 0864ms total)
T1348 001:123 JLINK_IsHalted()  returns FALSE (0001ms, 0865ms total)
T1348 001:140 JLINK_IsHalted()  returns FALSE (0002ms, 0866ms total)
T1348 001:147 JLINK_IsHalted()  returns FALSE (0001ms, 0865ms total)
T1348 001:149 JLINK_IsHalted()  returns FALSE (0001ms, 0865ms total)
T1348 001:151 JLINK_IsHalted()  returns FALSE (0001ms, 0865ms total)
T1348 001:153 JLINK_IsHalted()  returns FALSE (0001ms, 0865ms total)
T1348 001:155 JLINK_IsHalted() -- CPU_ReadMem(2 bytes @ 0x20000000)  returns TRUE (0004ms, 0868ms total)
T1348 001:159 JLINK_ReadReg(R15 (PC))  returns 0x20000000 (0000ms, 0864ms total)
T1348 001:159 JLINK_ClrBPEx(BPHandle = 0x00000005)  returns 0x00 (0000ms, 0864ms total)
T1348 001:159 JLINK_ReadReg(R0)  returns 0x00000000 (0000ms, 0864ms total)
T1348 001:159 JLINK_WriteMem(0x20000164, 0x0400 Bytes, ...) - Data: 00 33 23 B1 14 4B 43 43 12 4C 23 60 03 E0 10 4B ... -- CPU_WriteMem(1024 bytes @ 0x20000164)  returns 0x400 (0008ms, 0872ms total)
T1348 001:167 JLINK_WriteReg(R0, 0x08000400)  returns 0x00 (0000ms, 0872ms total)
T1348 001:167 JLINK_WriteReg(R1, 0x00000400)  returns 0x00 (0000ms, 0872ms total)
T1348 001:167 JLINK_WriteReg(R2, 0x20000164)  returns 0x00 (0000ms, 0872ms total)
T1348 001:167 JLINK_WriteReg(R3, 0x00000000)  returns 0x00 (0000ms, 0872ms total)
T1348 001:167 JLINK_WriteReg(R4, 0x00000000)  returns 0x00 (0000ms, 0872ms total)
T1348 001:167 JLINK_WriteReg(R5, 0x00000000)  returns 0x00 (0000ms, 0872ms total)
T1348 001:167 JLINK_WriteReg(R6, 0x00000000)  returns 0x00 (0000ms, 0872ms total)
T1348 001:167 JLINK_WriteReg(R7, 0x00000000)  returns 0x00 (0000ms, 0872ms total)
T1348 001:167 JLINK_WriteReg(R8, 0x00000000)  returns 0x00 (0000ms, 0872ms total)
T1348 001:167 JLINK_WriteReg(R9, 0x20000160)  returns 0x00 (0000ms, 0872ms total)
T1348 001:167 JLINK_WriteReg(R10, 0x00000000)  returns 0x00 (0000ms, 0872ms total)
T1348 001:167 JLINK_WriteReg(R11, 0x00000000)  returns 0x00 (0000ms, 0872ms total)
T1348 001:167 JLINK_WriteReg(R12, 0x00000000)  returns 0x00 (0000ms, 0872ms total)
T1348 001:167 JLINK_WriteReg(R13 (SP), 0x20000800)  returns 0x00 (0000ms, 0872ms total)
T1348 001:167 JLINK_WriteReg(R14, 0x20000001)  returns 0x00 (0000ms, 0872ms total)
T1348 001:167 JLINK_WriteReg(R15 (PC), 0x200000F4)  returns 0x00 (0000ms, 0872ms total)
T1348 001:167 JLINK_WriteReg(XPSR, 0x01000000)  returns 0x00 (0000ms, 0872ms total)
T1348 001:167 JLINK_WriteReg(MSP, 0x20000800)  returns 0x00 (0000ms, 0872ms total)
T1348 001:167 JLINK_WriteReg(PSP, 0x20000800)  returns 0x00 (0000ms, 0872ms total)
T1348 001:167 JLINK_WriteReg(CFBP, 0x00000000)  returns 0x00 (0000ms, 0872ms total)
T1348 001:167 JLINK_SetBPEx(Addr = 0x20000000, Type = 0xFFFFFFF2)  returns 0x00000006 (0000ms, 0872ms total)
T1348 001:167 JLINK_Go() (0003ms, 0875ms total)
T1348 001:170 JLINK_IsHalted()  returns FALSE (0001ms, 0876ms total)
T1348 001:187 JLINK_IsHalted()  returns FALSE (0001ms, 0876ms total)
T1348 001:189 JLINK_IsHalted()  returns FALSE (0001ms, 0876ms total)
T1348 001:191 JLINK_IsHalted()  returns FALSE (0001ms, 0876ms total)
T1348 001:193 JLINK_IsHalted()  returns FALSE (0001ms, 0876ms total)
T1348 001:195 JLINK_IsHalted()  returns FALSE (0001ms, 0876ms total)
T1348 001:197 JLINK_IsHalted()  returns FALSE (0001ms, 0876ms total)
T1348 001:199 JLINK_IsHalted()  returns FALSE (0001ms, 0876ms total)
T1348 001:202 JLINK_IsHalted() -- CPU_ReadMem(2 bytes @ 0x20000000)  returns TRUE (0014ms, 0889ms total)
T1348 001:216 JLINK_ReadReg(R15 (PC))  returns 0x20000000 (0000ms, 0875ms total)
T1348 001:216 JLINK_ClrBPEx(BPHandle = 0x00000006)  returns 0x00 (0000ms, 0875ms total)
T1348 001:216 JLINK_ReadReg(R0)  returns 0x00000000 (0000ms, 0875ms total)
T1348 001:217 JLINK_WriteMem(0x20000164, 0x0400 Bytes, ...) - Data: 54 68 00 20 2E E0 00 F1 08 0C 4F F0 01 08 08 FA ... -- CPU_WriteMem(1024 bytes @ 0x20000164)  returns 0x400 (0007ms, 0882ms total)
T1348 001:224 JLINK_WriteReg(R0, 0x08000800)  returns 0x00 (0000ms, 0882ms total)
T1348 001:224 JLINK_WriteReg(R1, 0x00000400)  returns 0x00 (0000ms, 0882ms total)
T1348 001:224 JLINK_WriteReg(R2, 0x20000164)  returns 0x00 (0000ms, 0882ms total)
T1348 001:224 JLINK_WriteReg(R3, 0x00000000)  returns 0x00 (0000ms, 0882ms total)
T1348 001:224 JLINK_WriteReg(R4, 0x00000000)  returns 0x00 (0000ms, 0882ms total)
T1348 001:224 JLINK_WriteReg(R5, 0x00000000)  returns 0x00 (0000ms, 0882ms total)
T1348 001:224 JLINK_WriteReg(R6, 0x00000000)  returns 0x00 (0000ms, 0882ms total)
T1348 001:224 JLINK_WriteReg(R7, 0x00000000)  returns 0x00 (0000ms, 0882ms total)
T1348 001:224 JLINK_WriteReg(R8, 0x00000000)  returns 0x00 (0000ms, 0882ms total)
T1348 001:224 JLINK_WriteReg(R9, 0x20000160)  returns 0x00 (0000ms, 0882ms total)
T1348 001:224 JLINK_WriteReg(R10, 0x00000000)  returns 0x00 (0000ms, 0882ms total)
T1348 001:224 JLINK_WriteReg(R11, 0x00000000)  returns 0x00 (0000ms, 0882ms total)
T1348 001:224 JLINK_WriteReg(R12, 0x00000000)  returns 0x00 (0000ms, 0882ms total)
T1348 001:224 JLINK_WriteReg(R13 (SP), 0x20000800)  returns 0x00 (0000ms, 0882ms total)
T1348 001:224 JLINK_WriteReg(R14, 0x20000001)  returns 0x00 (0000ms, 0882ms total)
T1348 001:224 JLINK_WriteReg(R15 (PC), 0x200000F4)  returns 0x00 (0000ms, 0882ms total)
T1348 001:224 JLINK_WriteReg(XPSR, 0x01000000)  returns 0x00 (0000ms, 0882ms total)
T1348 001:224 JLINK_WriteReg(MSP, 0x20000800)  returns 0x00 (0000ms, 0882ms total)
T1348 001:224 JLINK_WriteReg(PSP, 0x20000800)  returns 0x00 (0000ms, 0882ms total)
T1348 001:224 JLINK_WriteReg(CFBP, 0x00000000)  returns 0x00 (0000ms, 0882ms total)
T1348 001:224 JLINK_SetBPEx(Addr = 0x20000000, Type = 0xFFFFFFF2)  returns 0x00000007 (0000ms, 0882ms total)
T1348 001:224 JLINK_Go() (0003ms, 0885ms total)
T1348 001:227 JLINK_IsHalted()  returns FALSE (0001ms, 0886ms total)
T1348 001:229 JLINK_IsHalted()  returns FALSE (0001ms, 0886ms total)
T1348 001:231 JLINK_IsHalted()  returns FALSE (0001ms, 0886ms total)
T1348 001:234 JLINK_IsHalted()  returns FALSE (0001ms, 0886ms total)
T1348 001:236 JLINK_IsHalted()  returns FALSE (0001ms, 0886ms total)
T1348 001:238 JLINK_IsHalted()  returns FALSE (0001ms, 0886ms total)
T1348 001:242 JLINK_IsHalted()  returns FALSE (0001ms, 0886ms total)
T1348 001:244 JLINK_IsHalted()  returns FALSE (0001ms, 0886ms total)
T1348 001:246 JLINK_IsHalted()  returns FALSE (0001ms, 0886ms total)
T1348 001:248 JLINK_IsHalted()  returns FALSE (0001ms, 0886ms total)
T1348 001:250 JLINK_IsHalted()  returns FALSE (0001ms, 0886ms total)
T1348 001:272 JLINK_IsHalted() -- CPU_ReadMem(2 bytes @ 0x20000000)  returns TRUE (0004ms, 0889ms total)
T1348 001:276 JLINK_ReadReg(R15 (PC))  returns 0x20000000 (0000ms, 0885ms total)
T1348 001:276 JLINK_ClrBPEx(BPHandle = 0x00000007)  returns 0x00 (0000ms, 0885ms total)
T1348 001:276 JLINK_ReadReg(R0)  returns 0x00000000 (0000ms, 0885ms total)
T1348 001:276 JLINK_WriteMem(0x20000164, 0x0400 Bytes, ...) - Data: 5C 4D 6D 68 05 F0 0C 01 21 B1 04 29 05 D0 08 29 ... -- CPU_WriteMem(1024 bytes @ 0x20000164)  returns 0x400 (0008ms, 0893ms total)
T1348 001:284 JLINK_WriteReg(R0, 0x08000C00)  returns 0x00 (0000ms, 0893ms total)
T1348 001:284 JLINK_WriteReg(R1, 0x00000400)  returns 0x00 (0000ms, 0893ms total)
T1348 001:284 JLINK_WriteReg(R2, 0x20000164)  returns 0x00 (0000ms, 0893ms total)
T1348 001:284 JLINK_WriteReg(R3, 0x00000000)  returns 0x00 (0000ms, 0893ms total)
T1348 001:284 JLINK_WriteReg(R4, 0x00000000)  returns 0x00 (0000ms, 0893ms total)
T1348 001:284 JLINK_WriteReg(R5, 0x00000000)  returns 0x00 (0000ms, 0893ms total)
T1348 001:284 JLINK_WriteReg(R6, 0x00000000)  returns 0x00 (0000ms, 0893ms total)
T1348 001:284 JLINK_WriteReg(R7, 0x00000000)  returns 0x00 (0000ms, 0893ms total)
T1348 001:284 JLINK_WriteReg(R8, 0x00000000)  returns 0x00 (0000ms, 0893ms total)
T1348 001:284 JLINK_WriteReg(R9, 0x20000160)  returns 0x00 (0000ms, 0893ms total)
T1348 001:284 JLINK_WriteReg(R10, 0x00000000)  returns 0x00 (0000ms, 0893ms total)
T1348 001:284 JLINK_WriteReg(R11, 0x00000000)  returns 0x00 (0000ms, 0893ms total)
T1348 001:284 JLINK_WriteReg(R12, 0x00000000)  returns 0x00 (0000ms, 0893ms total)
T1348 001:284 JLINK_WriteReg(R13 (SP), 0x20000800)  returns 0x00 (0000ms, 0893ms total)
T1348 001:284 JLINK_WriteReg(R14, 0x20000001)  returns 0x00 (0000ms, 0893ms total)
T1348 001:284 JLINK_WriteReg(R15 (PC), 0x200000F4)  returns 0x00 (0000ms, 0893ms total)
T1348 001:284 JLINK_WriteReg(XPSR, 0x01000000)  returns 0x00 (0000ms, 0893ms total)
T1348 001:284 JLINK_WriteReg(MSP, 0x20000800)  returns 0x00 (0000ms, 0893ms total)
T1348 001:284 JLINK_WriteReg(PSP, 0x20000800)  returns 0x00 (0000ms, 0893ms total)
T1348 001:284 JLINK_WriteReg(CFBP, 0x00000000)  returns 0x00 (0000ms, 0893ms total)
T1348 001:284 JLINK_SetBPEx(Addr = 0x20000000, Type = 0xFFFFFFF2)  returns 0x00000008 (0000ms, 0893ms total)
T1348 001:284 JLINK_Go() (0003ms, 0896ms total)
T1348 001:287 JLINK_IsHalted()  returns FALSE (0001ms, 0897ms total)
T1348 001:304 JLINK_IsHalted()  returns FALSE (0001ms, 0897ms total)
T1348 001:308 JLINK_IsHalted()  returns FALSE (0001ms, 0897ms total)
T1348 001:311 JLINK_IsHalted()  returns FALSE (0002ms, 0898ms total)
T1348 001:314 JLINK_IsHalted()  returns FALSE (0001ms, 0897ms total)
T1348 001:316 JLINK_IsHalted()  returns FALSE (0001ms, 0897ms total)
T1348 001:318 JLINK_IsHalted() -- CPU_ReadMem(2 bytes @ 0x20000000)  returns TRUE (0004ms, 0900ms total)
T1348 001:322 JLINK_ReadReg(R15 (PC))  returns 0x20000000 (0000ms, 0896ms total)
T1348 001:322 JLINK_ClrBPEx(BPHandle = 0x00000008)  returns 0x00 (0000ms, 0896ms total)
T1348 001:322 JLINK_ReadReg(R0)  returns 0x00000000 (0000ms, 0896ms total)
T1348 001:322 JLINK_WriteMem(0x20000164, 0x0400 Bytes, ...) - Data: 02 82 04 E0 02 8A 4B F6 FF 73 1A 40 02 82 70 47 ... -- CPU_WriteMem(1024 bytes @ 0x20000164)  returns 0x400 (0008ms, 0904ms total)
T1348 001:330 JLINK_WriteReg(R0, 0x08001000)  returns 0x00 (0000ms, 0904ms total)
T1348 001:330 JLINK_WriteReg(R1, 0x00000400)  returns 0x00 (0000ms, 0904ms total)
T1348 001:330 JLINK_WriteReg(R2, 0x20000164)  returns 0x00 (0000ms, 0904ms total)
T1348 001:330 JLINK_WriteReg(R3, 0x00000000)  returns 0x00 (0000ms, 0904ms total)
T1348 001:330 JLINK_WriteReg(R4, 0x00000000)  returns 0x00 (0000ms, 0904ms total)
T1348 001:330 JLINK_WriteReg(R5, 0x00000000)  returns 0x00 (0000ms, 0904ms total)
T1348 001:330 JLINK_WriteReg(R6, 0x00000000)  returns 0x00 (0000ms, 0904ms total)
T1348 001:330 JLINK_WriteReg(R7, 0x00000000)  returns 0x00 (0000ms, 0904ms total)
T1348 001:330 JLINK_WriteReg(R8, 0x00000000)  returns 0x00 (0000ms, 0904ms total)
T1348 001:330 JLINK_WriteReg(R9, 0x20000160)  returns 0x00 (0000ms, 0904ms total)
T1348 001:330 JLINK_WriteReg(R10, 0x00000000)  returns 0x00 (0000ms, 0904ms total)
T1348 001:330 JLINK_WriteReg(R11, 0x00000000)  returns 0x00 (0000ms, 0904ms total)
T1348 001:330 JLINK_WriteReg(R12, 0x00000000)  returns 0x00 (0000ms, 0904ms total)
T1348 001:330 JLINK_WriteReg(R13 (SP), 0x20000800)  returns 0x00 (0000ms, 0904ms total)
T1348 001:330 JLINK_WriteReg(R14, 0x20000001)  returns 0x00 (0000ms, 0904ms total)
T1348 001:330 JLINK_WriteReg(R15 (PC), 0x200000F4)  returns 0x00 (0000ms, 0904ms total)
T1348 001:330 JLINK_WriteReg(XPSR, 0x01000000)  returns 0x00 (0000ms, 0904ms total)
T1348 001:330 JLINK_WriteReg(MSP, 0x20000800)  returns 0x00 (0000ms, 0904ms total)
T1348 001:330 JLINK_WriteReg(PSP, 0x20000800)  returns 0x00 (0000ms, 0904ms total)
T1348 001:330 JLINK_WriteReg(CFBP, 0x00000000)  returns 0x00 (0000ms, 0904ms total)
T1348 001:330 JLINK_SetBPEx(Addr = 0x20000000, Type = 0xFFFFFFF2)  returns 0x00000009 (0000ms, 0904ms total)
T1348 001:330 JLINK_Go() (0003ms, 0907ms total)
T1348 001:333 JLINK_IsHalted()  returns FALSE (0001ms, 0908ms total)
T1348 001:335 JLINK_IsHalted()  returns FALSE (0001ms, 0908ms total)
T1348 001:338 JLINK_IsHalted()  returns FALSE (0001ms, 0908ms total)
T1348 001:340 JLINK_IsHalted()  returns FALSE (0001ms, 0908ms total)
T1348 001:342 JLINK_IsHalted()  returns FALSE (0001ms, 0908ms total)
T1348 001:344 JLINK_IsHalted()  returns FALSE (0001ms, 0908ms total)
T1348 001:347 JLINK_IsHalted()  returns FALSE (0001ms, 0908ms total)
T1348 001:349 JLINK_IsHalted()  returns FALSE (0001ms, 0908ms total)
T1348 001:351 JLINK_IsHalted()  returns FALSE (0001ms, 0908ms total)
T1348 001:353 JLINK_IsHalted()  returns FALSE (0001ms, 0908ms total)
T1348 001:355 JLINK_IsHalted()  returns FALSE (0001ms, 0908ms total)
T1348 001:357 JLINK_IsHalted()  returns FALSE (0001ms, 0908ms total)
T1348 001:359 JLINK_IsHalted()  returns FALSE (0001ms, 0908ms total)
T1348 001:361 JLINK_IsHalted()  returns FALSE (0001ms, 0908ms total)
T1348 001:363 JLINK_IsHalted()  returns FALSE (0001ms, 0908ms total)
T1348 001:365 JLINK_IsHalted() -- CPU_ReadMem(2 bytes @ 0x20000000)  returns TRUE (0004ms, 0911ms total)
T1348 001:369 JLINK_ReadReg(R15 (PC))  returns 0x20000000 (0000ms, 0907ms total)
T1348 001:369 JLINK_ClrBPEx(BPHandle = 0x00000009)  returns 0x00 (0000ms, 0907ms total)
T1348 001:369 JLINK_ReadReg(R0)  returns 0x00000000 (0000ms, 0907ms total)
T1348 001:369 JLINK_WriteMem(0x20000164, 0x0400 Bytes, ...) - Data: 66 48 4C 30 00 68 70 47 21 B1 42 68 42 F4 80 62 ... -- CPU_WriteMem(1024 bytes @ 0x20000164)  returns 0x400 (0008ms, 0915ms total)
T1348 001:377 JLINK_WriteReg(R0, 0x08001400)  returns 0x00 (0000ms, 0915ms total)
T1348 001:377 JLINK_WriteReg(R1, 0x00000400)  returns 0x00 (0000ms, 0915ms total)
T1348 001:377 JLINK_WriteReg(R2, 0x20000164)  returns 0x00 (0000ms, 0915ms total)
T1348 001:377 JLINK_WriteReg(R3, 0x00000000)  returns 0x00 (0000ms, 0915ms total)
T1348 001:377 JLINK_WriteReg(R4, 0x00000000)  returns 0x00 (0000ms, 0915ms total)
T1348 001:377 JLINK_WriteReg(R5, 0x00000000)  returns 0x00 (0000ms, 0915ms total)
T1348 001:377 JLINK_WriteReg(R6, 0x00000000)  returns 0x00 (0000ms, 0915ms total)
T1348 001:377 JLINK_WriteReg(R7, 0x00000000)  returns 0x00 (0000ms, 0915ms total)
T1348 001:377 JLINK_WriteReg(R8, 0x00000000)  returns 0x00 (0000ms, 0915ms total)
T1348 001:377 JLINK_WriteReg(R9, 0x20000160)  returns 0x00 (0000ms, 0915ms total)
T1348 001:377 JLINK_WriteReg(R10, 0x00000000)  returns 0x00 (0000ms, 0915ms total)
T1348 001:377 JLINK_WriteReg(R11, 0x00000000)  returns 0x00 (0000ms, 0915ms total)
T1348 001:377 JLINK_WriteReg(R12, 0x00000000)  returns 0x00 (0000ms, 0915ms total)
T1348 001:377 JLINK_WriteReg(R13 (SP), 0x20000800)  returns 0x00 (0000ms, 0915ms total)
T1348 001:377 JLINK_WriteReg(R14, 0x20000001)  returns 0x00 (0000ms, 0915ms total)
T1348 001:377 JLINK_WriteReg(R15 (PC), 0x200000F4)  returns 0x00 (0000ms, 0915ms total)
T1348 001:377 JLINK_WriteReg(XPSR, 0x01000000)  returns 0x00 (0000ms, 0915ms total)
T1348 001:377 JLINK_WriteReg(MSP, 0x20000800)  returns 0x00 (0000ms, 0915ms total)
T1348 001:377 JLINK_WriteReg(PSP, 0x20000800)  returns 0x00 (0000ms, 0915ms total)
T1348 001:377 JLINK_WriteReg(CFBP, 0x00000000)  returns 0x00 (0000ms, 0915ms total)
T1348 001:377 JLINK_SetBPEx(Addr = 0x20000000, Type = 0xFFFFFFF2)  returns 0x0000000A (0000ms, 0915ms total)
T1348 001:377 JLINK_Go() (0003ms, 0918ms total)
T1348 001:380 JLINK_IsHalted()  returns FALSE (0001ms, 0919ms total)
T1348 001:383 JLINK_IsHalted()  returns FALSE (0001ms, 0919ms total)
T1348 001:388 JLINK_IsHalted()  returns FALSE (0001ms, 0919ms total)
T1348 001:405 JLINK_IsHalted()  returns FALSE (0001ms, 0919ms total)
T1348 001:407 JLINK_IsHalted()  returns FALSE (0001ms, 0919ms total)
T1348 001:409 JLINK_IsHalted()  returns FALSE (0001ms, 0919ms total)
T1348 001:411 JLINK_IsHalted() -- CPU_ReadMem(2 bytes @ 0x20000000)  returns TRUE (0004ms, 0922ms total)
T1348 001:415 JLINK_ReadReg(R15 (PC))  returns 0x20000000 (0000ms, 0918ms total)
T1348 001:415 JLINK_ClrBPEx(BPHandle = 0x0000000A)  returns 0x00 (0000ms, 0918ms total)
T1348 001:415 JLINK_ReadReg(R0)  returns 0x00000000 (0000ms, 0918ms total)
T1348 001:415 JLINK_WriteMem(0x20000164, 0x0400 Bytes, ...) - Data: 02 E0 11 49 08 39 48 60 70 47 01 46 00 20 00 22 ... -- CPU_WriteMem(1024 bytes @ 0x20000164)  returns 0x400 (0008ms, 0926ms total)
T1348 001:423 JLINK_WriteReg(R0, 0x08001800)  returns 0x00 (0000ms, 0926ms total)
T1348 001:423 JLINK_WriteReg(R1, 0x00000400)  returns 0x00 (0000ms, 0926ms total)
T1348 001:423 JLINK_WriteReg(R2, 0x20000164)  returns 0x00 (0000ms, 0926ms total)
T1348 001:423 JLINK_WriteReg(R3, 0x00000000)  returns 0x00 (0000ms, 0926ms total)
T1348 001:423 JLINK_WriteReg(R4, 0x00000000)  returns 0x00 (0000ms, 0926ms total)
T1348 001:423 JLINK_WriteReg(R5, 0x00000000)  returns 0x00 (0000ms, 0926ms total)
T1348 001:423 JLINK_WriteReg(R6, 0x00000000)  returns 0x00 (0000ms, 0926ms total)
T1348 001:423 JLINK_WriteReg(R7, 0x00000000)  returns 0x00 (0000ms, 0926ms total)
T1348 001:423 JLINK_WriteReg(R8, 0x00000000)  returns 0x00 (0000ms, 0926ms total)
T1348 001:423 JLINK_WriteReg(R9, 0x20000160)  returns 0x00 (0000ms, 0926ms total)
T1348 001:423 JLINK_WriteReg(R10, 0x00000000)  returns 0x00 (0000ms, 0926ms total)
T1348 001:423 JLINK_WriteReg(R11, 0x00000000)  returns 0x00 (0000ms, 0926ms total)
T1348 001:423 JLINK_WriteReg(R12, 0x00000000)  returns 0x00 (0000ms, 0926ms total)
T1348 001:423 JLINK_WriteReg(R13 (SP), 0x20000800)  returns 0x00 (0000ms, 0926ms total)
T1348 001:423 JLINK_WriteReg(R14, 0x20000001)  returns 0x00 (0000ms, 0926ms total)
T1348 001:423 JLINK_WriteReg(R15 (PC), 0x200000F4)  returns 0x00 (0000ms, 0926ms total)
T1348 001:423 JLINK_WriteReg(XPSR, 0x01000000)  returns 0x00 (0000ms, 0926ms total)
T1348 001:423 JLINK_WriteReg(MSP, 0x20000800)  returns 0x00 (0000ms, 0926ms total)
T1348 001:423 JLINK_WriteReg(PSP, 0x20000800)  returns 0x00 (0000ms, 0926ms total)
T1348 001:423 JLINK_WriteReg(CFBP, 0x00000000)  returns 0x00 (0000ms, 0926ms total)
T1348 001:423 JLINK_SetBPEx(Addr = 0x20000000, Type = 0xFFFFFFF2)  returns 0x0000000B (0000ms, 0926ms total)
T1348 001:423 JLINK_Go() (0003ms, 0929ms total)
T1348 001:426 JLINK_IsHalted()  returns FALSE (0001ms, 0930ms total)
T1348 001:430 JLINK_IsHalted()  returns FALSE (0001ms, 0930ms total)
T1348 001:436 JLINK_IsHalted()  returns FALSE (0007ms, 0936ms total)
T1348 001:464 JLINK_IsHalted() -- CPU_ReadMem(2 bytes @ 0x20000000)  returns TRUE (0021ms, 0950ms total)
T1348 001:485 JLINK_ReadReg(R15 (PC))  returns 0x20000000 (0000ms, 0929ms total)
T1348 001:485 JLINK_ClrBPEx(BPHandle = 0x0000000B)  returns 0x00 (0000ms, 0929ms total)
T1348 001:485 JLINK_ReadReg(R0)  returns 0x00000000 (0000ms, 0929ms total)
T1348 001:485 JLINK_WriteMem(0x20000164, 0x0400 Bytes, ...) - Data: FF 75 2B 40 4D F6 FF 75 2B 40 8D 89 06 EA 05 15 ... -- CPU_WriteMem(1024 bytes @ 0x20000164)  returns 0x400 (0008ms, 0937ms total)
T1348 001:493 JLINK_WriteReg(R0, 0x08001C00)  returns 0x00 (0000ms, 0937ms total)
T1348 001:493 JLINK_WriteReg(R1, 0x00000400)  returns 0x00 (0000ms, 0937ms total)
T1348 001:493 JLINK_WriteReg(R2, 0x20000164)  returns 0x00 (0000ms, 0937ms total)
T1348 001:493 JLINK_WriteReg(R3, 0x00000000)  returns 0x00 (0000ms, 0937ms total)
T1348 001:493 JLINK_WriteReg(R4, 0x00000000)  returns 0x00 (0000ms, 0937ms total)
T1348 001:493 JLINK_WriteReg(R5, 0x00000000)  returns 0x00 (0000ms, 0937ms total)
T1348 001:493 JLINK_WriteReg(R6, 0x00000000)  returns 0x00 (0000ms, 0937ms total)
T1348 001:493 JLINK_WriteReg(R7, 0x00000000)  returns 0x00 (0000ms, 0937ms total)
T1348 001:493 JLINK_WriteReg(R8, 0x00000000)  returns 0x00 (0000ms, 0937ms total)
T1348 001:493 JLINK_WriteReg(R9, 0x20000160)  returns 0x00 (0000ms, 0937ms total)
T1348 001:493 JLINK_WriteReg(R10, 0x00000000)  returns 0x00 (0000ms, 0937ms total)
T1348 001:493 JLINK_WriteReg(R11, 0x00000000)  returns 0x00 (0000ms, 0937ms total)
T1348 001:493 JLINK_WriteReg(R12, 0x00000000)  returns 0x00 (0000ms, 0937ms total)
T1348 001:493 JLINK_WriteReg(R13 (SP), 0x20000800)  returns 0x00 (0000ms, 0937ms total)
T1348 001:493 JLINK_WriteReg(R14, 0x20000001)  returns 0x00 (0000ms, 0937ms total)
T1348 001:493 JLINK_WriteReg(R15 (PC), 0x200000F4)  returns 0x00 (0000ms, 0937ms total)
T1348 001:493 JLINK_WriteReg(XPSR, 0x01000000)  returns 0x00 (0000ms, 0937ms total)
T1348 001:493 JLINK_WriteReg(MSP, 0x20000800)  returns 0x00 (0000ms, 0937ms total)
T1348 001:493 JLINK_WriteReg(PSP, 0x20000800)  returns 0x00 (0000ms, 0937ms total)
T1348 001:493 JLINK_WriteReg(CFBP, 0x00000000)  returns 0x00 (0000ms, 0937ms total)
T1348 001:493 JLINK_SetBPEx(Addr = 0x20000000, Type = 0xFFFFFFF2)  returns 0x0000000C (0000ms, 0937ms total)
T1348 001:493 JLINK_Go() (0003ms, 0940ms total)
T1348 001:496 JLINK_IsHalted()  returns FALSE (0001ms, 0941ms total)
T1348 001:517 JLINK_IsHalted()  returns FALSE (0001ms, 0941ms total)
T1348 001:519 JLINK_IsHalted()  returns FALSE (0001ms, 0941ms total)
T1348 001:521 JLINK_IsHalted()  returns FALSE (0001ms, 0941ms total)
T1348 001:523 JLINK_IsHalted()  returns FALSE (0001ms, 0941ms total)
T1348 001:533 JLINK_IsHalted() -- CPU_ReadMem(2 bytes @ 0x20000000)  returns TRUE (0004ms, 0944ms total)
T1348 001:537 JLINK_ReadReg(R15 (PC))  returns 0x20000000 (0000ms, 0940ms total)
T1348 001:537 JLINK_ClrBPEx(BPHandle = 0x0000000C)  returns 0x00 (0000ms, 0940ms total)
T1348 001:537 JLINK_ReadReg(R0)  returns 0x00000000 (0000ms, 0940ms total)
T1348 001:537 JLINK_WriteMem(0x20000164, 0x0400 Bytes, ...) - Data: 01 FF 13 E0 23 89 A2 88 61 88 28 46 FF F7 07 FF ... -- CPU_WriteMem(1024 bytes @ 0x20000164)  returns 0x400 (0008ms, 0948ms total)
T1348 001:545 JLINK_WriteReg(R0, 0x08002000)  returns 0x00 (0000ms, 0948ms total)
T1348 001:545 JLINK_WriteReg(R1, 0x00000400)  returns 0x00 (0000ms, 0948ms total)
T1348 001:545 JLINK_WriteReg(R2, 0x20000164)  returns 0x00 (0000ms, 0948ms total)
T1348 001:545 JLINK_WriteReg(R3, 0x00000000)  returns 0x00 (0000ms, 0948ms total)
T1348 001:545 JLINK_WriteReg(R4, 0x00000000)  returns 0x00 (0000ms, 0948ms total)
T1348 001:545 JLINK_WriteReg(R5, 0x00000000)  returns 0x00 (0000ms, 0948ms total)
T1348 001:545 JLINK_WriteReg(R6, 0x00000000)  returns 0x00 (0000ms, 0948ms total)
T1348 001:545 JLINK_WriteReg(R7, 0x00000000)  returns 0x00 (0000ms, 0948ms total)
T1348 001:545 JLINK_WriteReg(R8, 0x00000000)  returns 0x00 (0000ms, 0948ms total)
T1348 001:545 JLINK_WriteReg(R9, 0x20000160)  returns 0x00 (0000ms, 0948ms total)
T1348 001:545 JLINK_WriteReg(R10, 0x00000000)  returns 0x00 (0000ms, 0948ms total)
T1348 001:545 JLINK_WriteReg(R11, 0x00000000)  returns 0x00 (0000ms, 0948ms total)
T1348 001:545 JLINK_WriteReg(R12, 0x00000000)  returns 0x00 (0000ms, 0948ms total)
T1348 001:545 JLINK_WriteReg(R13 (SP), 0x20000800)  returns 0x00 (0000ms, 0948ms total)
T1348 001:545 JLINK_WriteReg(R14, 0x20000001)  returns 0x00 (0000ms, 0948ms total)
T1348 001:545 JLINK_WriteReg(R15 (PC), 0x200000F4)  returns 0x00 (0000ms, 0948ms total)
T1348 001:545 JLINK_WriteReg(XPSR, 0x01000000)  returns 0x00 (0000ms, 0948ms total)
T1348 001:545 JLINK_WriteReg(MSP, 0x20000800)  returns 0x00 (0000ms, 0948ms total)
T1348 001:545 JLINK_WriteReg(PSP, 0x20000800)  returns 0x00 (0000ms, 0948ms total)
T1348 001:545 JLINK_WriteReg(CFBP, 0x00000000)  returns 0x00 (0000ms, 0948ms total)
T1348 001:545 JLINK_SetBPEx(Addr = 0x20000000, Type = 0xFFFFFFF2)  returns 0x0000000D (0000ms, 0948ms total)
T1348 001:545 JLINK_Go() (0003ms, 0951ms total)
T1348 001:548 JLINK_IsHalted()  returns FALSE (0001ms, 0952ms total)
T1348 001:550 JLINK_IsHalted()  returns FALSE (0001ms, 0952ms total)
T1348 001:552 JLINK_IsHalted()  returns FALSE (0001ms, 0952ms total)
T1348 001:554 JLINK_IsHalted()  returns FALSE (0001ms, 0952ms total)
T1348 001:556 JLINK_IsHalted()  returns FALSE (0001ms, 0952ms total)
T1348 001:558 JLINK_IsHalted()  returns FALSE (0001ms, 0952ms total)
T1348 001:561 JLINK_IsHalted()  returns FALSE (0001ms, 0952ms total)
T1348 001:563 JLINK_IsHalted()  returns FALSE (0001ms, 0952ms total)
T1348 001:565 JLINK_IsHalted()  returns FALSE (0001ms, 0952ms total)
T1348 001:567 JLINK_IsHalted()  returns FALSE (0001ms, 0952ms total)
T1348 001:569 JLINK_IsHalted()  returns FALSE (0001ms, 0952ms total)
T1348 001:571 JLINK_IsHalted()  returns FALSE (0001ms, 0952ms total)
T1348 001:573 JLINK_IsHalted()  returns FALSE (0001ms, 0952ms total)
T1348 001:575 JLINK_IsHalted()  returns FALSE (0001ms, 0952ms total)
T1348 001:577 JLINK_IsHalted()  returns FALSE (0001ms, 0952ms total)
T1348 001:579 JLINK_IsHalted() -- CPU_ReadMem(2 bytes @ 0x20000000)  returns TRUE (0004ms, 0955ms total)
T1348 001:583 JLINK_ReadReg(R15 (PC))  returns 0x20000000 (0000ms, 0951ms total)
T1348 001:583 JLINK_ClrBPEx(BPHandle = 0x0000000D)  returns 0x00 (0000ms, 0951ms total)
T1348 001:583 JLINK_ReadReg(R0)  returns 0x00000000 (0000ms, 0951ms total)
T1348 001:583 JLINK_WriteMem(0x20000164, 0x0400 Bytes, ...) - Data: 81 8B C1 F3 0E 01 4F F6 FF 73 03 EA 02 23 19 43 ... -- CPU_WriteMem(1024 bytes @ 0x20000164)  returns 0x400 (0007ms, 0958ms total)
T1348 001:590 JLINK_WriteReg(R0, 0x08002400)  returns 0x00 (0000ms, 0958ms total)
T1348 001:590 JLINK_WriteReg(R1, 0x00000400)  returns 0x00 (0000ms, 0958ms total)
T1348 001:590 JLINK_WriteReg(R2, 0x20000164)  returns 0x00 (0000ms, 0958ms total)
T1348 001:590 JLINK_WriteReg(R3, 0x00000000)  returns 0x00 (0000ms, 0958ms total)
T1348 001:590 JLINK_WriteReg(R4, 0x00000000)  returns 0x00 (0000ms, 0958ms total)
T1348 001:590 JLINK_WriteReg(R5, 0x00000000)  returns 0x00 (0000ms, 0958ms total)
T1348 001:590 JLINK_WriteReg(R6, 0x00000000)  returns 0x00 (0000ms, 0958ms total)
T1348 001:590 JLINK_WriteReg(R7, 0x00000000)  returns 0x00 (0000ms, 0958ms total)
T1348 001:590 JLINK_WriteReg(R8, 0x00000000)  returns 0x00 (0000ms, 0958ms total)
T1348 001:590 JLINK_WriteReg(R9, 0x20000160)  returns 0x00 (0000ms, 0958ms total)
T1348 001:590 JLINK_WriteReg(R10, 0x00000000)  returns 0x00 (0000ms, 0958ms total)
T1348 001:590 JLINK_WriteReg(R11, 0x00000000)  returns 0x00 (0000ms, 0958ms total)
T1348 001:590 JLINK_WriteReg(R12, 0x00000000)  returns 0x00 (0000ms, 0958ms total)
T1348 001:590 JLINK_WriteReg(R13 (SP), 0x20000800)  returns 0x00 (0000ms, 0958ms total)
T1348 001:590 JLINK_WriteReg(R14, 0x20000001)  returns 0x00 (0000ms, 0958ms total)
T1348 001:590 JLINK_WriteReg(R15 (PC), 0x200000F4)  returns 0x00 (0000ms, 0958ms total)
T1348 001:590 JLINK_WriteReg(XPSR, 0x01000000)  returns 0x00 (0000ms, 0958ms total)
T1348 001:590 JLINK_WriteReg(MSP, 0x20000800)  returns 0x00 (0000ms, 0958ms total)
T1348 001:590 JLINK_WriteReg(PSP, 0x20000800)  returns 0x00 (0000ms, 0958ms total)
T1348 001:590 JLINK_WriteReg(CFBP, 0x00000000)  returns 0x00 (0000ms, 0958ms total)
T1348 001:590 JLINK_SetBPEx(Addr = 0x20000000, Type = 0xFFFFFFF2)  returns 0x0000000E (0000ms, 0958ms total)
T1348 001:590 JLINK_Go() (0003ms, 0961ms total)
T1348 001:593 JLINK_IsHalted()  returns FALSE (0001ms, 0962ms total)
T1348 001:595 JLINK_IsHalted()  returns FALSE (0001ms, 0962ms total)
T1348 001:597 JLINK_IsHalted()  returns FALSE (0001ms, 0962ms total)
T1348 001:599 JLINK_IsHalted()  returns FALSE (0001ms, 0962ms total)
T1348 001:601 JLINK_IsHalted()  returns FALSE (0001ms, 0962ms total)
T1348 001:603 JLINK_IsHalted()  returns FALSE (0001ms, 0962ms total)
T1348 001:605 JLINK_IsHalted()  returns FALSE (0002ms, 0963ms total)
T1348 001:623 JLINK_IsHalted()  returns FALSE (0002ms, 0963ms total)
T1348 001:629 JLINK_IsHalted() -- CPU_ReadMem(2 bytes @ 0x20000000)  returns TRUE (0005ms, 0966ms total)
T1348 001:634 JLINK_ReadReg(R15 (PC))  returns 0x20000000 (0000ms, 0961ms total)
T1348 001:634 JLINK_ClrBPEx(BPHandle = 0x0000000E)  returns 0x00 (0000ms, 0961ms total)
T1348 001:634 JLINK_ReadReg(R0)  returns 0x00000000 (0000ms, 0961ms total)
T1348 001:634 JLINK_WriteMem(0x20000164, 0x0400 Bytes, ...) - Data: 4F FE 10 BD F8 B5 04 46 0D 46 17 46 1E 46 30 46 ... -- CPU_WriteMem(1024 bytes @ 0x20000164)  returns 0x400 (0008ms, 0969ms total)
T1348 001:642 JLINK_WriteReg(R0, 0x08002800)  returns 0x00 (0000ms, 0969ms total)
T1348 001:642 JLINK_WriteReg(R1, 0x00000400)  returns 0x00 (0000ms, 0969ms total)
T1348 001:642 JLINK_WriteReg(R2, 0x20000164)  returns 0x00 (0000ms, 0969ms total)
T1348 001:642 JLINK_WriteReg(R3, 0x00000000)  returns 0x00 (0000ms, 0969ms total)
T1348 001:642 JLINK_WriteReg(R4, 0x00000000)  returns 0x00 (0000ms, 0969ms total)
T1348 001:642 JLINK_WriteReg(R5, 0x00000000)  returns 0x00 (0000ms, 0969ms total)
T1348 001:642 JLINK_WriteReg(R6, 0x00000000)  returns 0x00 (0000ms, 0969ms total)
T1348 001:642 JLINK_WriteReg(R7, 0x00000000)  returns 0x00 (0000ms, 0969ms total)
T1348 001:642 JLINK_WriteReg(R8, 0x00000000)  returns 0x00 (0000ms, 0969ms total)
T1348 001:642 JLINK_WriteReg(R9, 0x20000160)  returns 0x00 (0000ms, 0969ms total)
T1348 001:642 JLINK_WriteReg(R10, 0x00000000)  returns 0x00 (0000ms, 0969ms total)
T1348 001:642 JLINK_WriteReg(R11, 0x00000000)  returns 0x00 (0000ms, 0969ms total)
T1348 001:642 JLINK_WriteReg(R12, 0x00000000)  returns 0x00 (0000ms, 0969ms total)
T1348 001:642 JLINK_WriteReg(R13 (SP), 0x20000800)  returns 0x00 (0000ms, 0969ms total)
T1348 001:642 JLINK_WriteReg(R14, 0x20000001)  returns 0x00 (0000ms, 0969ms total)
T1348 001:642 JLINK_WriteReg(R15 (PC), 0x200000F4)  returns 0x00 (0000ms, 0969ms total)
T1348 001:642 JLINK_WriteReg(XPSR, 0x01000000)  returns 0x00 (0000ms, 0969ms total)
T1348 001:642 JLINK_WriteReg(MSP, 0x20000800)  returns 0x00 (0000ms, 0969ms total)
T1348 001:642 JLINK_WriteReg(PSP, 0x20000800)  returns 0x00 (0000ms, 0969ms total)
T1348 001:642 JLINK_WriteReg(CFBP, 0x00000000)  returns 0x00 (0000ms, 0969ms total)
T1348 001:642 JLINK_SetBPEx(Addr = 0x20000000, Type = 0xFFFFFFF2)  returns 0x0000000F (0000ms, 0969ms total)
T1348 001:642 JLINK_Go() (0003ms, 0972ms total)
T1348 001:645 JLINK_IsHalted()  returns FALSE (0001ms, 0973ms total)
T1348 001:647 JLINK_IsHalted()  returns FALSE (0001ms, 0973ms total)
T1348 001:649 JLINK_IsHalted()  returns FALSE (0001ms, 0973ms total)
T1348 001:651 JLINK_IsHalted()  returns FALSE (0001ms, 0973ms total)
T1348 001:653 JLINK_IsHalted()  returns FALSE (0001ms, 0973ms total)
T1348 001:655 JLINK_IsHalted()  returns FALSE (0001ms, 0973ms total)
T1348 001:657 JLINK_IsHalted()  returns FALSE (0001ms, 0973ms total)
T1348 001:659 JLINK_IsHalted()  returns FALSE (0001ms, 0973ms total)
T1348 001:661 JLINK_IsHalted()  returns FALSE (0001ms, 0973ms total)
T1348 001:663 JLINK_IsHalted()  returns FALSE (0001ms, 0973ms total)
T1348 001:665 JLINK_IsHalted()  returns FALSE (0001ms, 0973ms total)
T1348 001:667 JLINK_IsHalted()  returns FALSE (0001ms, 0973ms total)
T1348 001:669 JLINK_IsHalted()  returns FALSE (0001ms, 0973ms total)
T1348 001:671 JLINK_IsHalted()  returns FALSE (0001ms, 0973ms total)
T1348 001:673 JLINK_IsHalted()  returns FALSE (0001ms, 0973ms total)
T1348 001:675 JLINK_IsHalted() -- CPU_ReadMem(2 bytes @ 0x20000000)  returns TRUE (0004ms, 0976ms total)
T1348 001:679 JLINK_ReadReg(R15 (PC))  returns 0x20000000 (0000ms, 0972ms total)
T1348 001:679 JLINK_ClrBPEx(BPHandle = 0x0000000F)  returns 0x00 (0000ms, 0972ms total)
T1348 001:679 JLINK_ReadReg(R0)  returns 0x00000000 (0000ms, 0972ms total)
T1348 001:680 JLINK_WriteMem(0x20000164, 0x0400 Bytes, ...) - Data: 08 60 4F F4 FA 70 FF F7 71 FD 04 20 03 49 09 1F ... -- CPU_WriteMem(1024 bytes @ 0x20000164)  returns 0x400 (0007ms, 0979ms total)
T1348 001:688 JLINK_WriteReg(R0, 0x08002C00)  returns 0x00 (0000ms, 0979ms total)
T1348 001:688 JLINK_WriteReg(R1, 0x00000400)  returns 0x00 (0000ms, 0979ms total)
T1348 001:688 JLINK_WriteReg(R2, 0x20000164)  returns 0x00 (0000ms, 0979ms total)
T1348 001:688 JLINK_WriteReg(R3, 0x00000000)  returns 0x00 (0000ms, 0979ms total)
